T6E8C 000:005.839   SEGGER J-Link V8.96 Log File
T6E8C 000:005.988   DLL Compiled: Dec 18 2025 16:46:38
T6E8C 000:005.995   Logging started @ 2026-01-26 06:05
T6E8C 000:006.002   Process: C:\Keil_v5\UV4\UV4.exe
T6E8C 000:006.014 - 6.007ms 
T6E8C 000:006.027 JLINK_SetWarnOutHandler(...)
T6E8C 000:006.033 - 0.008ms 
T6E8C 000:006.041 JLINK_OpenEx(...)
T6E8C 000:011.151   Firmware: J-Link V9 compiled May  7 2021 16:26:12
T6E8C 000:012.424   Firmware: J-Link V9 compiled May  7 2021 16:26:12
T6E8C 000:012.650   Decompressing FW timestamp took 173 us
T6E8C 000:019.050   Hardware: V9.20
T6E8C 000:019.103   S/N: 20210103
T6E8C 000:019.117   OEM: SEGGER
T6E8C 000:019.132   Feature(s): RDI, GDB, FlashDL, FlashBP, JFlash
T6E8C 000:020.087   Bootloader: (FW returned invalid version)
T6E8C 000:021.060   TELNET listener socket opened on port 19021
T6E8C 000:021.269   WEBSRV WEBSRV_Init(): Starting webserver thread(s)
T6E8C 000:021.523   WEBSRV Webserver running on local port 19080
T6E8C 000:021.725   Looking for J-Link GUI Server exe at: C:\Keil_v5\ARM\Segger\JLinkGUIServer.exe
T6E8C 000:021.873   Looking for J-Link GUI Server exe at: C:\Program Files\SEGGER\JLink_V896\JLinkGUIServer.exe
T6E8C 000:021.922   Forking J-Link GUI Server: C:\Program Files\SEGGER\JLink_V896\JLinkGUIServer.exe
T6E8C 000:051.276   J-Link GUI Server info: "J-Link GUI server V8.96 "
T6E8C 000:054.739 - 48.692ms returns "O.K."
T6E8C 000:054.781 JLINK_GetEmuCaps()
T6E8C 000:054.790 - 0.006ms returns 0xB9FF7BBF
T6E8C 000:054.798 JLINK_TIF_GetAvailable(...)
T6E8C 000:055.066 - 0.267ms 
T6E8C 000:055.083 JLINK_SetErrorOutHandler(...)
T6E8C 000:055.088 - 0.005ms 
T6E8C 000:055.110 JLINK_ExecCommand("ProjectFile = "D:\01_Documents\03_Class\01_STM32_Dadashi\MDK-ARM\JLinkSettings.ini"", ...). 
T6E8C 000:068.494   Ref file found at: C:\Keil_v5\ARM\Segger\JLinkDevices.ref
T6E8C 000:068.583   REF file references invalid XML file: C:\Program Files\SEGGER\JLink_V896\JLinkDevices.xml
T6E8C 000:071.032   Flash bank @ 0x08000000: SFL: Parsing sectorization info from ELF file
T6E8C 000:071.047     FlashDevice.SectorInfo[0]: .SectorSize = 0x00020000, .SectorStartAddr = 0x00000000
T6E8C 000:071.055   FlashBank @0x08000000: Sectorization info from SFL ELF file ignored because sectorization override from DLL / XML file is active.
T6E8C 000:071.201   Flash bank @ 0x90000000: SFL: Parsing sectorization info from ELF file
T6E8C 000:071.209     FlashDevice.SectorInfo[0]: .SectorSize = 0x00010000, .SectorStartAddr = 0x00000000
T6E8C 000:087.808   Device "STM32H750VB" selected.
T6E8C 000:088.116 - 33.007ms returns 0x00
T6E8C 000:089.568 JLINK_ExecCommand("Device = STM32H750VBTx", ...). 
T6E8C 000:092.421   Flash bank @ 0x08000000: SFL: Parsing sectorization info from ELF file
T6E8C 000:092.434     FlashDevice.SectorInfo[0]: .SectorSize = 0x00020000, .SectorStartAddr = 0x00000000
T6E8C 000:092.442   FlashBank @0x08000000: Sectorization info from SFL ELF file ignored because sectorization override from DLL / XML file is active.
T6E8C 000:092.520   Flash bank @ 0x90000000: SFL: Parsing sectorization info from ELF file
T6E8C 000:092.528     FlashDevice.SectorInfo[0]: .SectorSize = 0x00010000, .SectorStartAddr = 0x00000000
T6E8C 000:109.037   Device "STM32H750VB" selected.
T6E8C 000:109.340 - 19.754ms returns 0x00
T6E8C 000:109.354 JLINK_ExecCommand("DisableConnectionTimeout", ...). 
T6E8C 000:109.367   ERROR: Unknown command
T6E8C 000:109.374 - 0.013ms returns 0x01
T6E8C 000:109.383 JLINK_GetHardwareVersion()
T6E8C 000:109.389 - 0.006ms returns 92000
T6E8C 000:109.395 JLINK_GetDLLVersion()
T6E8C 000:109.400 - 0.004ms returns 89600
T6E8C 000:109.405 JLINK_GetOEMString(...)
T6E8C 000:109.411 JLINK_GetFirmwareString(...)
T6E8C 000:109.416 - 0.004ms 
T6E8C 000:113.679 JLINK_GetDLLVersion()
T6E8C 000:113.697 - 0.017ms returns 89600
T6E8C 000:113.703 JLINK_GetCompileDateTime()
T6E8C 000:113.708 - 0.004ms 
T6E8C 000:115.032 JLINK_GetFirmwareString(...)
T6E8C 000:115.048 - 0.015ms 
T6E8C 000:116.350 JLINK_GetHardwareVersion()
T6E8C 000:116.365 - 0.014ms returns 92000
T6E8C 000:117.735 JLINK_GetSN()
T6E8C 000:117.754 - 0.018ms returns 20210103
T6E8C 000:119.236 JLINK_GetOEMString(...)
T6E8C 000:121.741 JLINK_TIF_Select(JLINKARM_TIF_SWD)
T6E8C 000:122.726 - 0.989ms returns 0x00
T6E8C 000:122.738 JLINK_HasError()
T6E8C 000:122.748 JLINK_SetSpeed(5000)
T6E8C 000:122.950 - 0.203ms 
T6E8C 000:122.958 JLINK_GetId()
T6E8C 000:124.546   ConfigTargetSettings() start
T6E8C 000:124.564    J-Link Script File: Executing ConfigTargetSettings()
T6E8C 000:126.065   ConfigTargetSettings() end - Took 21us
T6E8C 000:127.399   InitTarget() start
T6E8C 000:127.417    J-Link Script File: Executing InitTarget()
T6E8C 000:129.071   SWD selected. Executing JTAG -> SWD switching sequence.
T6E8C 000:132.610   DAP initialized successfully.
T6E8C 000:142.718   InitTarget() end - Took 13.9ms
T6E8C 000:144.803   Found SW-DP with ID 0x6BA02477
T6E8C 000:148.685   DPIDR: 0x6BA02477
T6E8C 000:149.968   CoreSight SoC-400 or earlier
T6E8C 000:151.672   Scanning AP map to find all available APs
T6E8C 000:154.747   AP[3]: Stopped AP scan as end of AP map has been reached
T6E8C 000:156.301   AP[0]: AHB-AP (IDR: 0x84770001, ADDR: 0x00000000)
T6E8C 000:157.706   AP[1]: AHB-AP (IDR: 0x84770001, ADDR: 0x01000000)
T6E8C 000:159.056   AP[2]: APB-AP (IDR: 0x54770002, ADDR: 0x02000000)
T6E8C 000:160.354   Iterating through AP map to find AHB-AP to use
T6E8C 000:163.096   AP[0]: Core found
T6E8C 000:164.408   AP[0]: AHB-AP ROM base: 0xE00FE000
T6E8C 000:166.277   CPUID register: 0x411FC271. Implementer code: 0x41 (ARM)
T6E8C 000:168.446   Cache: L1 I/D-cache present
T6E8C 000:169.794   Found Cortex-M7 r1p1, Little endian.
T6E8C 000:170.288   -- Max. mem block: 0x00010AA0
T6E8C 000:170.986   CPU_ReadMem(4 bytes @ 0xE000EDF0)
T6E8C 000:171.368   CPU_ReadMem(4 bytes @ 0xE0002000)
T6E8C 000:173.187   FPUnit: 8 code (BP) slots and 0 literal slots
T6E8C 000:173.211   CPU_ReadMem(4 bytes @ 0xE000EDFC)
T6E8C 000:173.621   CPU_ReadMem(4 bytes @ 0xE0001000)
T6E8C 000:174.040   CPU_WriteMem(4 bytes @ 0xE0001000)
T6E8C 000:174.511   CPU_ReadMem(4 bytes @ 0xE000ED88)
T6E8C 000:174.841   CPU_WriteMem(4 bytes @ 0xE000ED88)
T6E8C 000:175.234   CPU_ReadMem(4 bytes @ 0xE000ED88)
T6E8C 000:175.615   CPU_WriteMem(4 bytes @ 0xE000ED88)
T6E8C 000:177.333   CoreSight components:
T6E8C 000:178.639   ROMTbl[0] @ E00FE000
T6E8C 000:178.659   CPU_ReadMem(64 bytes @ 0xE00FE000)
T6E8C 000:179.526   CPU_ReadMem(32 bytes @ 0xE00FFFE0)
T6E8C 000:181.725   [0][0]: E00FF000 CID B105100D PID 000BB4C7 ROM Table
T6E8C 000:184.162   ROMTbl[1] @ E00FF000
T6E8C 000:184.187   CPU_ReadMem(64 bytes @ 0xE00FF000)
T6E8C 000:185.076   CPU_ReadMem(32 bytes @ 0xE000EFE0)
T6E8C 000:187.573   [1][0]: E000E000 CID B105E00D PID 000BB00C SCS-M7
T6E8C 000:187.600   CPU_ReadMem(32 bytes @ 0xE0001FE0)
T6E8C 000:189.765   [1][1]: E0001000 CID B105E00D PID 000BB002 DWT
T6E8C 000:189.792   CPU_ReadMem(32 bytes @ 0xE0002FE0)
T6E8C 000:192.668   [1][2]: E0002000 CID B105E00D PID 000BB00E FPB-M7
T6E8C 000:192.696   CPU_ReadMem(32 bytes @ 0xE0000FE0)
T6E8C 000:195.192   [1][3]: E0000000 CID B105E00D PID 000BB001 ITM
T6E8C 000:195.218   CPU_ReadMem(32 bytes @ 0xE0041FE0)
T6E8C 000:197.702   [0][1]: E0041000 CID B105900D PID 001BB975 ETM-M7
T6E8C 000:197.728   CPU_ReadMem(32 bytes @ 0xE0043FE0)
T6E8C 000:199.898   [0][2]: E0043000 CID B105900D PID 004BB906 CTI
T6E8C 000:199.923   CPU_WriteMem(4 bytes @ 0xE000ED84)
T6E8C 000:200.618   CPU_ReadMem(4 bytes @ 0xE000ED80)
T6E8C 000:202.929   I-Cache L1: 16 KB, 256 Sets, 32 Bytes/Line, 2-Way
T6E8C 000:202.954   CPU_WriteMem(4 bytes @ 0xE000ED84)
T6E8C 000:203.527   CPU_ReadMem(4 bytes @ 0xE000ED80)
T6E8C 000:205.761   D-Cache L1: 16 KB, 128 Sets, 32 Bytes/Line, 4-Way
T6E8C 000:206.152 - 83.193ms returns 0x6BA02477
T6E8C 000:206.179 JLINK_GetDLLVersion()
T6E8C 000:206.186 - 0.006ms returns 89600
T6E8C 000:206.258 JLINK_CORE_GetFound()
T6E8C 000:206.265 - 0.007ms returns 0xE0100FF
T6E8C 000:206.274 JLINK_GetDebugInfo(0x100 = JLINKARM_ROM_TABLE_ADDR_INDEX)
T6E8C 000:206.281   Value=0xE00FE000
T6E8C 000:206.299 - 0.026ms returns 0
T6E8C 000:208.543 JLINK_GetDebugInfo(0x100 = JLINKARM_ROM_TABLE_ADDR_INDEX)
T6E8C 000:208.562   Value=0xE00FE000
T6E8C 000:208.571 - 0.028ms returns 0
T6E8C 000:208.579 JLINK_GetDebugInfo(0x101 = JLINKARM_DEBUG_INFO_ETM_ADDR_INDEX)
T6E8C 000:208.585   Value=0xE0041000
T6E8C 000:208.593 - 0.014ms returns 0
T6E8C 000:208.607 JLINK_ReadMemEx(0xE0041FD0, 0x20 Bytes, Flags = 0x02000004)
T6E8C 000:208.632   CPU_ReadMem(32 bytes @ 0xE0041FD0)
T6E8C 000:209.319   Data:  04 00 00 00 00 00 00 00 00 00 00 00 00 00 00 00 ...
T6E8C 000:209.349 - 0.741ms returns 32 (0x20)
T6E8C 000:209.358 JLINK_GetDebugInfo(0x102 = JLINKARM_DEBUG_INFO_MTB_ADDR_INDEX)
T6E8C 000:209.364   Value=0x00000000
T6E8C 000:209.373 - 0.015ms returns 0
T6E8C 000:209.381 JLINK_GetDebugInfo(0x103 = JLINKARM_DEBUG_INFO_TPIU_ADDR_INDEX)
T6E8C 000:209.387   Value=0xE00F5000
T6E8C 000:209.395 - 0.014ms returns 0
T6E8C 000:209.403 JLINK_GetDebugInfo(0x104 = JLINKARM_DEBUG_INFO_ITM_ADDR_INDEX)
T6E8C 000:209.408   Value=0xE0000000
T6E8C 000:209.417 - 0.014ms returns 0
T6E8C 000:209.424 JLINK_GetDebugInfo(0x105 = JLINKARM_DEBUG_INFO_DWT_ADDR_INDEX)
T6E8C 000:209.430   Value=0xE0001000
T6E8C 000:209.438 - 0.014ms returns 0
T6E8C 000:209.445 JLINK_GetDebugInfo(0x106 = JLINKARM_DEBUG_INFO_FPB_ADDR_INDEX)
T6E8C 000:209.451   Value=0xE0002000
T6E8C 000:209.459 - 0.014ms returns 0
T6E8C 000:209.466 JLINK_GetDebugInfo(0x107 = JLINKARM_DEBUG_INFO_NVIC_ADDR_INDEX)
T6E8C 000:209.472   Value=0xE000E000
T6E8C 000:209.480 - 0.014ms returns 0
T6E8C 000:209.488 JLINK_GetDebugInfo(0x10C = JLINKARM_DEBUG_INFO_DBG_ADDR_INDEX)
T6E8C 000:209.494   Value=0xE000EDF0
T6E8C 000:209.502 - 0.014ms returns 0
T6E8C 000:209.509 JLINK_GetDebugInfo(0x01 = Unknown)
T6E8C 000:209.515   Value=0x00000001
T6E8C 000:209.523 - 0.014ms returns 0
T6E8C 000:209.531 JLINK_ReadMemU32(0xE000ED00, 0x1 Items)
T6E8C 000:209.541   CPU_ReadMem(4 bytes @ 0xE000ED00)
T6E8C 000:209.934   Data:  71 C2 1F 41
T6E8C 000:209.945   Debug reg: CPUID
T6E8C 000:209.954 - 0.423ms returns 1 (0x1)
T6E8C 000:209.963 JLINK_GetDebugInfo(0x10F = JLINKARM_DEBUG_INFO_HAS_CORTEX_M_SECURITY_EXT_INDEX)
T6E8C 000:209.969   Value=0x00000000
T6E8C 000:209.977 - 0.015ms returns 0
T6E8C 000:209.985 JLINK_HasError()
T6E8C 000:209.993 JLINK_SetResetType(JLINKARM_CM3_RESET_TYPE_NORMAL)
T6E8C 000:209.999 - 0.006ms returns JLINKARM_CM3_RESET_TYPE_NORMAL
T6E8C 000:210.006 JLINK_Reset()
T6E8C 000:210.019   JLINK_GetResetTypeDesc
T6E8C 000:210.026   - 0.006ms 
T6E8C 000:211.935   Reset type: NORMAL (https://kb.segger.com/J-Link_Reset_Strategies)
T6E8C 000:211.964   CPU is running
T6E8C 000:211.977   CPU_WriteMem(4 bytes @ 0xE000EDF0)
T6E8C 000:212.471   CPU is running
T6E8C 000:212.483   CPU_WriteMem(4 bytes @ 0xE000EDFC)
T6E8C 000:214.708   Reset: Halt core after reset via DEMCR.VC_CORERESET.
T6E8C 000:216.992   Reset: Reset device via AIRCR.SYSRESETREQ.
T6E8C 000:217.016   CPU is running
T6E8C 000:217.028   CPU_WriteMem(4 bytes @ 0xE000ED0C)
T6E8C 000:270.283   CPU_ReadMem(4 bytes @ 0xE000EDF0)
T6E8C 000:271.061   CPU_ReadMem(4 bytes @ 0xE000EDF0)
T6E8C 000:275.286   CPU_WriteMem(4 bytes @ 0xE000EDFC)
T6E8C 000:281.858   CPU_ReadMem(4 bytes @ 0xE000EDF0)
T6E8C 000:285.971   CPU_WriteMem(4 bytes @ 0xE0002000)
T6E8C 000:286.607   CPU_ReadMem(4 bytes @ 0xE000EDFC)
T6E8C 000:287.295   CPU_ReadMem(4 bytes @ 0xE0001000)
T6E8C 000:287.998 - 77.990ms 
T6E8C 000:288.041 JLINK_Halt()
T6E8C 000:288.056 - 0.013ms returns 0x00
T6E8C 000:288.189 JLINK_ReadMemU32(0xE000EDF0, 0x1 Items)
T6E8C 000:288.219   CPU_ReadMem(4 bytes @ 0xE000EDF0)
T6E8C 000:288.874   Data:  03 00 03 00
T6E8C 000:288.896   Debug reg: DHCSR
T6E8C 000:288.915 - 0.727ms returns 1 (0x1)
T6E8C 000:288.935 JLINK_WriteU32(0xE000EDF0, 0xA05F0003)
T6E8C 000:288.948   Debug reg: DHCSR
T6E8C 000:289.761   CPU_WriteMem(4 bytes @ 0xE000EDF0)
T6E8C 000:290.284 - 1.348ms returns 0 (0x00000000)
T6E8C 000:290.309 JLINK_WriteU32(0xE000EDFC, 0x01000000)
T6E8C 000:290.326   Debug reg: DEMCR
T6E8C 000:290.375   CPU_WriteMem(4 bytes @ 0xE000EDFC)
T6E8C 000:291.152 - 0.840ms returns 0 (0x00000000)
T6E8C 000:305.383 JLINK_GetHWStatus(...)
T6E8C 000:305.984 - 0.600ms returns 0
T6E8C 000:313.841 JLINK_GetNumBPUnits(Type = 0xFFFFFF00)
T6E8C 000:313.867 - 0.026ms returns 0x08
T6E8C 000:313.876 JLINK_GetNumBPUnits(Type = 0xF0)
T6E8C 000:313.883 - 0.007ms returns 0x2000
T6E8C 000:313.891 JLINK_GetNumWPUnits()
T6E8C 000:313.898 - 0.006ms returns 4
T6E8C 000:321.741 JLINK_GetSpeed()
T6E8C 000:321.770 - 0.028ms returns 4000
T6E8C 000:326.673 JLINK_ReadMemU32(0xE000E004, 0x1 Items)
T6E8C 000:326.708   CPU_ReadMem(4 bytes @ 0xE000E004)
T6E8C 000:327.255   Data:  04 00 00 00
T6E8C 000:327.280 - 0.607ms returns 1 (0x1)
T6E8C 000:327.292 JLINK_ReadMemU32(0xE000E004, 0x1 Items)
T6E8C 000:327.305   CPU_ReadMem(4 bytes @ 0xE000E004)
T6E8C 000:327.784   Data:  04 00 00 00
T6E8C 000:327.800 - 0.506ms returns 1 (0x1)
T6E8C 000:327.832 JLINK_WriteMemEx(0xE0001000, 0x0000001C Bytes, Flags = 0x02000004)
T6E8C 000:327.839   Data:  01 00 00 00 00 00 00 00 00 00 00 00 00 00 00 00 ...
T6E8C 000:327.863   CPU_WriteMem(28 bytes @ 0xE0001000)
T6E8C 000:328.674 - 0.842ms returns 0x1C
T6E8C 000:328.689 JLINK_Halt()
T6E8C 000:328.695 - 0.006ms returns 0x00
T6E8C 000:328.702 JLINK_IsHalted()
T6E8C 000:328.709 - 0.006ms returns TRUE
T6E8C 000:331.713 JLINK_WriteMem(0x20000000, 0x418 Bytes, ...)
T6E8C 000:331.730   Data:  00 BE 0A E0 0D 78 2D 06 68 40 08 24 40 00 00 D3 ...
T6E8C 000:332.521   CPU_WriteMem(1048 bytes @ 0x20000000)
T6E8C 000:339.185 - 7.472ms returns 0x418
T6E8C 000:339.353 JLINK_HasError()
T6E8C 000:339.390 JLINK_WriteReg(R0, 0x08000000)
T6E8C 000:339.405 - 0.014ms returns 0
T6E8C 000:339.416 JLINK_WriteReg(R1, 0x017D7840)
T6E8C 000:339.430 - 0.015ms returns 0
T6E8C 000:339.445 JLINK_WriteReg(R2, 0x00000001)
T6E8C 000:339.457 - 0.012ms returns 0
T6E8C 000:339.471 JLINK_WriteReg(R3, 0x00000000)
T6E8C 000:339.481 - 0.010ms returns 0
T6E8C 000:339.492 JLINK_WriteReg(R4, 0x00000000)
T6E8C 000:339.500 - 0.008ms returns 0
T6E8C 000:339.511 JLINK_WriteReg(R5, 0x00000000)
T6E8C 000:339.520 - 0.009ms returns 0
T6E8C 000:339.530 JLINK_WriteReg(R6, 0x00000000)
T6E8C 000:339.539 - 0.009ms returns 0
T6E8C 000:339.549 JLINK_WriteReg(R7, 0x00000000)
T6E8C 000:339.558 - 0.008ms returns 0
T6E8C 000:339.580 JLINK_WriteReg(R8, 0x00000000)
T6E8C 000:339.589 - 0.020ms returns 0
T6E8C 000:339.599 JLINK_WriteReg(R9, 0x20000414)
T6E8C 000:339.608 - 0.009ms returns 0
T6E8C 000:339.618 JLINK_WriteReg(R10, 0x00000000)
T6E8C 000:339.627 - 0.009ms returns 0
T6E8C 000:339.638 JLINK_WriteReg(R11, 0x00000000)
T6E8C 000:339.646 - 0.008ms returns 0
T6E8C 000:339.657 JLINK_WriteReg(R12, 0x00000000)
T6E8C 000:339.666 - 0.009ms returns 0
T6E8C 000:339.676 JLINK_WriteReg(R13 (SP), 0x20001000)
T6E8C 000:339.687 - 0.010ms returns 0
T6E8C 000:339.697 JLINK_WriteReg(R14, 0x20000001)
T6E8C 000:339.706 - 0.009ms returns 0
T6E8C 000:339.720 JLINK_WriteReg(R15 (PC), 0x2000003E)
T6E8C 000:339.729 - 0.012ms returns 0
T6E8C 000:339.739 JLINK_WriteReg(XPSR, 0x01000000)
T6E8C 000:339.748 - 0.009ms returns 0
T6E8C 000:339.759 JLINK_WriteReg(MSP, 0x20001000)
T6E8C 000:339.768 - 0.009ms returns 0
T6E8C 000:339.778 JLINK_WriteReg(PSP, 0x20001000)
T6E8C 000:339.787 - 0.009ms returns 0
T6E8C 000:339.798 JLINK_WriteReg(CFBP, 0x00000000)
T6E8C 000:339.806 - 0.008ms returns 0
T6E8C 000:339.818 JLINK_SetBPEx(Addr = 0x20000000, Type = 0xFFFFFFF2)
T6E8C 000:339.829 - 0.011ms returns 0x00000001
T6E8C 000:339.840 JLINK_Go()
T6E8C 000:339.862   CPU_WriteMem(4 bytes @ 0xE0002000)
T6E8C 000:340.408   CPU_ReadMem(4 bytes @ 0xE0001000)
T6E8C 000:340.972   CPU_WriteMem(4 bytes @ 0xE0002008)
T6E8C 000:340.989   CPU_WriteMem(4 bytes @ 0xE000200C)
T6E8C 000:341.003   CPU_WriteMem(4 bytes @ 0xE0002010)
T6E8C 000:341.016   CPU_WriteMem(4 bytes @ 0xE0002014)
T6E8C 000:341.029   CPU_WriteMem(4 bytes @ 0xE0002018)
T6E8C 000:341.042   CPU_WriteMem(4 bytes @ 0xE000201C)
T6E8C 000:341.054   CPU_WriteMem(4 bytes @ 0xE0002020)
T6E8C 000:341.157   CPU_WriteMem(4 bytes @ 0xE0002024)
T6E8C 000:343.406   CPU_WriteMem(4 bytes @ 0xE0001004)
T6E8C 000:350.753   Memory map 'after startup completion point' is active
T6E8C 000:350.807 - 10.966ms 
T6E8C 000:350.830 JLINK_IsHalted()
T6E8C 000:354.168 - 3.337ms returns TRUE
T6E8C 000:354.206 JLINK_ReadReg(R15 (PC))
T6E8C 000:354.220 - 0.013ms returns 0x20000000
T6E8C 000:354.232 JLINK_ClrBPEx(BPHandle = 0x00000001)
T6E8C 000:354.243 - 0.010ms returns 0x00
T6E8C 000:354.255 JLINK_ReadReg(R0)
T6E8C 000:354.264 - 0.009ms returns 0x00000000
T6E8C 000:355.179 JLINK_HasError()
T6E8C 000:355.222 JLINK_WriteReg(R0, 0x08000000)
T6E8C 000:355.237 - 0.015ms returns 0
T6E8C 000:355.250 JLINK_WriteReg(R1, 0x00020000)
T6E8C 000:355.260 - 0.010ms returns 0
T6E8C 000:355.271 JLINK_WriteReg(R2, 0x000000FF)
T6E8C 000:355.281 - 0.010ms returns 0
T6E8C 000:355.293 JLINK_WriteReg(R3, 0x00000000)
T6E8C 000:355.303 - 0.009ms returns 0
T6E8C 000:355.315 JLINK_WriteReg(R4, 0x00000000)
T6E8C 000:355.325 - 0.009ms returns 0
T6E8C 000:355.336 JLINK_WriteReg(R5, 0x00000000)
T6E8C 000:355.346 - 0.009ms returns 0
T6E8C 000:355.357 JLINK_WriteReg(R6, 0x00000000)
T6E8C 000:355.367 - 0.009ms returns 0
T6E8C 000:355.378 JLINK_WriteReg(R7, 0x00000000)
T6E8C 000:355.388 - 0.009ms returns 0
T6E8C 000:355.399 JLINK_WriteReg(R8, 0x00000000)
T6E8C 000:355.409 - 0.009ms returns 0
T6E8C 000:355.421 JLINK_WriteReg(R9, 0x20000414)
T6E8C 000:355.430 - 0.009ms returns 0
T6E8C 000:355.442 JLINK_WriteReg(R10, 0x00000000)
T6E8C 000:355.452 - 0.010ms returns 0
T6E8C 000:355.463 JLINK_WriteReg(R11, 0x00000000)
T6E8C 000:355.473 - 0.009ms returns 0
T6E8C 000:355.484 JLINK_WriteReg(R12, 0x00000000)
T6E8C 000:355.494 - 0.009ms returns 0
T6E8C 000:355.506 JLINK_WriteReg(R13 (SP), 0x20001000)
T6E8C 000:355.517 - 0.011ms returns 0
T6E8C 000:355.528 JLINK_WriteReg(R14, 0x20000001)
T6E8C 000:355.538 - 0.009ms returns 0
T6E8C 000:355.550 JLINK_WriteReg(R15 (PC), 0x20000020)
T6E8C 000:355.567 - 0.017ms returns 0
T6E8C 000:355.583 JLINK_WriteReg(XPSR, 0x01000000)
T6E8C 000:355.596 - 0.013ms returns 0
T6E8C 000:355.608 JLINK_WriteReg(MSP, 0x20001000)
T6E8C 000:355.618 - 0.010ms returns 0
T6E8C 000:355.629 JLINK_WriteReg(PSP, 0x20001000)
T6E8C 000:355.639 - 0.009ms returns 0
T6E8C 000:355.650 JLINK_WriteReg(CFBP, 0x00000000)
T6E8C 000:355.660 - 0.009ms returns 0
T6E8C 000:355.673 JLINK_SetBPEx(Addr = 0x20000000, Type = 0xFFFFFFF2)
T6E8C 000:355.685 - 0.013ms returns 0x00000002
T6E8C 000:355.697 JLINK_Go()
T6E8C 000:355.716   CPU_WriteMem(4 bytes @ 0xE0002000)
T6E8C 000:356.260   CPU_ReadMem(4 bytes @ 0xE0001000)
T6E8C 000:360.097 - 4.398ms 
T6E8C 000:360.130 JLINK_IsHalted()
T6E8C 000:360.618 - 0.488ms returns FALSE
T6E8C 000:360.639 JLINK_HasError()
T6E8C 000:384.901 JLINK_IsHalted()
T6E8C 000:388.411 - 3.509ms returns TRUE
T6E8C 000:388.431 JLINK_ReadReg(R15 (PC))
T6E8C 000:388.439 - 0.008ms returns 0x20000000
T6E8C 000:388.445 JLINK_ClrBPEx(BPHandle = 0x00000002)
T6E8C 000:388.451 - 0.005ms returns 0x00
T6E8C 000:388.457 JLINK_ReadReg(R0)
T6E8C 000:388.462 - 0.005ms returns 0x00000000
T6E8C 000:388.823 JLINK_HasError()
T6E8C 000:388.837 JLINK_WriteReg(R0, 0x00000001)
T6E8C 000:388.844 - 0.006ms returns 0
T6E8C 000:388.849 JLINK_WriteReg(R1, 0x00020000)
T6E8C 000:388.854 - 0.005ms returns 0
T6E8C 000:388.860 JLINK_WriteReg(R2, 0x000000FF)
T6E8C 000:388.865 - 0.005ms returns 0
T6E8C 000:388.870 JLINK_WriteReg(R3, 0x00000000)
T6E8C 000:388.876 - 0.005ms returns 0
T6E8C 000:388.881 JLINK_WriteReg(R4, 0x00000000)
T6E8C 000:388.886 - 0.004ms returns 0
T6E8C 000:388.892 JLINK_WriteReg(R5, 0x00000000)
T6E8C 000:388.896 - 0.004ms returns 0
T6E8C 000:388.902 JLINK_WriteReg(R6, 0x00000000)
T6E8C 000:388.907 - 0.004ms returns 0
T6E8C 000:388.912 JLINK_WriteReg(R7, 0x00000000)
T6E8C 000:388.917 - 0.004ms returns 0
T6E8C 000:388.923 JLINK_WriteReg(R8, 0x00000000)
T6E8C 000:388.927 - 0.004ms returns 0
T6E8C 000:388.933 JLINK_WriteReg(R9, 0x20000414)
T6E8C 000:388.938 - 0.004ms returns 0
T6E8C 000:388.948 JLINK_WriteReg(R10, 0x00000000)
T6E8C 000:388.956 - 0.007ms returns 0
T6E8C 000:388.961 JLINK_WriteReg(R11, 0x00000000)
T6E8C 000:388.967 - 0.005ms returns 0
T6E8C 000:388.972 JLINK_WriteReg(R12, 0x00000000)
T6E8C 000:388.977 - 0.004ms returns 0
T6E8C 000:388.984 JLINK_WriteReg(R13 (SP), 0x20001000)
T6E8C 000:388.990 - 0.007ms returns 0
T6E8C 000:388.995 JLINK_WriteReg(R14, 0x20000001)
T6E8C 000:389.000 - 0.005ms returns 0
T6E8C 000:389.006 JLINK_WriteReg(R15 (PC), 0x2000009C)
T6E8C 000:389.011 - 0.005ms returns 0
T6E8C 000:389.017 JLINK_WriteReg(XPSR, 0x01000000)
T6E8C 000:389.023 - 0.005ms returns 0
T6E8C 000:389.029 JLINK_WriteReg(MSP, 0x20001000)
T6E8C 000:389.034 - 0.005ms returns 0
T6E8C 000:389.039 JLINK_WriteReg(PSP, 0x20001000)
T6E8C 000:389.044 - 0.005ms returns 0
T6E8C 000:389.050 JLINK_WriteReg(CFBP, 0x00000000)
T6E8C 000:389.055 - 0.005ms returns 0
T6E8C 000:389.062 JLINK_SetBPEx(Addr = 0x20000000, Type = 0xFFFFFFF2)
T6E8C 000:389.068 - 0.006ms returns 0x00000003
T6E8C 000:389.074 JLINK_Go()
T6E8C 000:389.084   CPU_WriteMem(4 bytes @ 0xE0002000)
T6E8C 000:389.745   CPU_ReadMem(4 bytes @ 0xE0001000)
T6E8C 000:394.261 - 5.186ms 
T6E8C 000:394.287 JLINK_IsHalted()
T6E8C 000:397.923 - 3.635ms returns TRUE
T6E8C 000:397.954 JLINK_ReadReg(R15 (PC))
T6E8C 000:397.962 - 0.008ms returns 0x20000000
T6E8C 000:398.021 JLINK_ClrBPEx(BPHandle = 0x00000003)
T6E8C 000:398.028 - 0.007ms returns 0x00
T6E8C 000:398.035 JLINK_ReadReg(R0)
T6E8C 000:398.041 - 0.005ms returns 0x00000000
T6E8C 000:458.373 JLINK_WriteMem(0x20000000, 0x418 Bytes, ...)
T6E8C 000:458.391   Data:  00 BE 0A E0 0D 78 2D 06 68 40 08 24 40 00 00 D3 ...
T6E8C 000:458.416   CPU_WriteMem(1048 bytes @ 0x20000000)
T6E8C 000:464.876 - 6.502ms returns 0x418
T6E8C 000:465.000 JLINK_HasError()
T6E8C 000:465.018 JLINK_WriteReg(R0, 0x08000000)
T6E8C 000:465.035 - 0.017ms returns 0
T6E8C 000:465.046 JLINK_WriteReg(R1, 0x017D7840)
T6E8C 000:465.054 - 0.008ms returns 0
T6E8C 000:465.063 JLINK_WriteReg(R2, 0x00000002)
T6E8C 000:465.071 - 0.008ms returns 0
T6E8C 000:465.081 JLINK_WriteReg(R3, 0x00000000)
T6E8C 000:465.088 - 0.008ms returns 0
T6E8C 000:465.097 JLINK_WriteReg(R4, 0x00000000)
T6E8C 000:465.106 - 0.008ms returns 0
T6E8C 000:465.115 JLINK_WriteReg(R5, 0x00000000)
T6E8C 000:465.122 - 0.007ms returns 0
T6E8C 000:465.131 JLINK_WriteReg(R6, 0x00000000)
T6E8C 000:465.139 - 0.007ms returns 0
T6E8C 000:465.148 JLINK_WriteReg(R7, 0x00000000)
T6E8C 000:465.156 - 0.008ms returns 0
T6E8C 000:465.165 JLINK_WriteReg(R8, 0x00000000)
T6E8C 000:465.172 - 0.007ms returns 0
T6E8C 000:465.181 JLINK_WriteReg(R9, 0x20000414)
T6E8C 000:465.189 - 0.008ms returns 0
T6E8C 000:465.198 JLINK_WriteReg(R10, 0x00000000)
T6E8C 000:465.206 - 0.007ms returns 0
T6E8C 000:465.215 JLINK_WriteReg(R11, 0x00000000)
T6E8C 000:465.223 - 0.007ms returns 0
T6E8C 000:465.232 JLINK_WriteReg(R12, 0x00000000)
T6E8C 000:465.240 - 0.007ms returns 0
T6E8C 000:465.249 JLINK_WriteReg(R13 (SP), 0x20001000)
T6E8C 000:465.258 - 0.009ms returns 0
T6E8C 000:465.266 JLINK_WriteReg(R14, 0x20000001)
T6E8C 000:465.274 - 0.007ms returns 0
T6E8C 000:465.284 JLINK_WriteReg(R15 (PC), 0x2000003E)
T6E8C 000:465.292 - 0.008ms returns 0
T6E8C 000:465.301 JLINK_WriteReg(XPSR, 0x01000000)
T6E8C 000:465.308 - 0.007ms returns 0
T6E8C 000:465.318 JLINK_WriteReg(MSP, 0x20001000)
T6E8C 000:465.326 - 0.008ms returns 0
T6E8C 000:465.335 JLINK_WriteReg(PSP, 0x20001000)
T6E8C 000:465.343 - 0.007ms returns 0
T6E8C 000:465.352 JLINK_WriteReg(CFBP, 0x00000000)
T6E8C 000:465.360 - 0.007ms returns 0
T6E8C 000:465.370 JLINK_SetBPEx(Addr = 0x20000000, Type = 0xFFFFFFF2)
T6E8C 000:465.380 - 0.010ms returns 0x00000004
T6E8C 000:465.389 JLINK_Go()
T6E8C 000:465.404   CPU_WriteMem(4 bytes @ 0xE0002000)
T6E8C 000:465.907   CPU_ReadMem(4 bytes @ 0xE0001000)
T6E8C 000:469.624 - 4.233ms 
T6E8C 000:469.647 JLINK_IsHalted()
T6E8C 000:472.872 - 3.223ms returns TRUE
T6E8C 000:472.898 JLINK_ReadReg(R15 (PC))
T6E8C 000:472.908 - 0.009ms returns 0x20000000
T6E8C 000:472.923 JLINK_ClrBPEx(BPHandle = 0x00000004)
T6E8C 000:472.934 - 0.010ms returns 0x00
T6E8C 000:472.942 JLINK_ReadReg(R0)
T6E8C 000:472.950 - 0.007ms returns 0x00000000
T6E8C 000:473.382 JLINK_WriteMem(0x20000418, 0x3E8 Bytes, ...)
T6E8C 000:473.397   Data:  00 4A 00 24 71 03 00 08 D5 1D 00 08 BF 1C 00 08 ...
T6E8C 000:473.425   CPU_WriteMem(1000 bytes @ 0x20000418)
T6E8C 000:479.549 - 6.166ms returns 0x3E8
T6E8C 000:479.588 JLINK_WriteMem(0x20000800, 0x18 Bytes, ...)
T6E8C 000:479.596   Data:  70 47 00 22 F6 E7 10 B5 13 46 0A 46 04 46 19 46 ...
T6E8C 000:479.672   CPU_WriteMem(24 bytes @ 0x20000800)
T6E8C 000:480.260 - 0.670ms returns 0x18
T6E8C 000:480.300 JLINK_HasError()
T6E8C 000:480.312 JLINK_WriteReg(R0, 0x08000000)
T6E8C 000:480.324 - 0.012ms returns 0
T6E8C 000:480.334 JLINK_WriteReg(R1, 0x00000400)
T6E8C 000:480.341 - 0.008ms returns 0
T6E8C 000:480.351 JLINK_WriteReg(R2, 0x20000418)
T6E8C 000:480.358 - 0.007ms returns 0
T6E8C 000:480.367 JLINK_WriteReg(R3, 0x00000000)
T6E8C 000:480.374 - 0.007ms returns 0
T6E8C 000:480.383 JLINK_WriteReg(R4, 0x00000000)
T6E8C 000:480.391 - 0.007ms returns 0
T6E8C 000:480.399 JLINK_WriteReg(R5, 0x00000000)
T6E8C 000:480.406 - 0.007ms returns 0
T6E8C 000:480.415 JLINK_WriteReg(R6, 0x00000000)
T6E8C 000:480.422 - 0.007ms returns 0
T6E8C 000:480.431 JLINK_WriteReg(R7, 0x00000000)
T6E8C 000:480.438 - 0.007ms returns 0
T6E8C 000:480.447 JLINK_WriteReg(R8, 0x00000000)
T6E8C 000:480.454 - 0.007ms returns 0
T6E8C 000:480.463 JLINK_WriteReg(R9, 0x20000414)
T6E8C 000:480.471 - 0.007ms returns 0
T6E8C 000:480.480 JLINK_WriteReg(R10, 0x00000000)
T6E8C 000:480.493 - 0.013ms returns 0
T6E8C 000:480.505 JLINK_WriteReg(R11, 0x00000000)
T6E8C 000:480.515 - 0.010ms returns 0
T6E8C 000:480.526 JLINK_WriteReg(R12, 0x00000000)
T6E8C 000:480.534 - 0.007ms returns 0
T6E8C 000:480.542 JLINK_WriteReg(R13 (SP), 0x20001000)
T6E8C 000:480.551 - 0.008ms returns 0
T6E8C 000:480.560 JLINK_WriteReg(R14, 0x20000001)
T6E8C 000:480.568 - 0.008ms returns 0
T6E8C 000:480.577 JLINK_WriteReg(R15 (PC), 0x2000029A)
T6E8C 000:480.584 - 0.008ms returns 0
T6E8C 000:480.593 JLINK_WriteReg(XPSR, 0x01000000)
T6E8C 000:480.601 - 0.007ms returns 0
T6E8C 000:480.610 JLINK_WriteReg(MSP, 0x20001000)
T6E8C 000:480.617 - 0.007ms returns 0
T6E8C 000:480.626 JLINK_WriteReg(PSP, 0x20001000)
T6E8C 000:480.633 - 0.007ms returns 0
T6E8C 000:480.642 JLINK_WriteReg(CFBP, 0x00000000)
T6E8C 000:480.649 - 0.007ms returns 0
T6E8C 000:480.659 JLINK_SetBPEx(Addr = 0x20000000, Type = 0xFFFFFFF2)
T6E8C 000:480.668 - 0.009ms returns 0x00000005
T6E8C 000:480.677 JLINK_Go()
T6E8C 000:480.690   CPU_WriteMem(4 bytes @ 0xE0002000)
T6E8C 000:481.173   CPU_ReadMem(4 bytes @ 0xE0001000)
T6E8C 000:484.949 - 4.270ms 
T6E8C 000:484.975 JLINK_IsHalted()
T6E8C 000:485.337 - 0.361ms returns FALSE
T6E8C 000:485.353 JLINK_HasError()
T6E8C 000:495.673 JLINK_IsHalted()
T6E8C 000:499.029 - 3.356ms returns TRUE
T6E8C 000:499.052 JLINK_ReadReg(R15 (PC))
T6E8C 000:499.060 - 0.008ms returns 0x20000000
T6E8C 000:499.068 JLINK_ClrBPEx(BPHandle = 0x00000005)
T6E8C 000:499.074 - 0.006ms returns 0x00
T6E8C 000:499.081 JLINK_ReadReg(R0)
T6E8C 000:499.088 - 0.006ms returns 0x00000000
T6E8C 000:499.693 JLINK_WriteMem(0x20000418, 0x3E8 Bytes, ...)
T6E8C 000:499.710   Data:  42 1C 10 F8 01 1B 00 29 FB D1 80 1A 70 47 00 00 ...
T6E8C 000:499.729   CPU_WriteMem(1000 bytes @ 0x20000418)
T6E8C 000:505.826 - 6.131ms returns 0x3E8
T6E8C 000:505.860 JLINK_WriteMem(0x20000800, 0x18 Bytes, ...)
T6E8C 000:505.870   Data:  80 1B B0 F5 7A 7F 01 D9 01 20 DA E7 28 68 D0 F8 ...
T6E8C 000:505.897   CPU_WriteMem(24 bytes @ 0x20000800)
T6E8C 000:506.489 - 0.626ms returns 0x18
T6E8C 000:506.523 JLINK_HasError()
T6E8C 000:506.537 JLINK_WriteReg(R0, 0x08000400)
T6E8C 000:506.553 - 0.015ms returns 0
T6E8C 000:506.564 JLINK_WriteReg(R1, 0x00000400)
T6E8C 000:506.574 - 0.010ms returns 0
T6E8C 000:506.585 JLINK_WriteReg(R2, 0x20000418)
T6E8C 000:506.594 - 0.009ms returns 0
T6E8C 000:506.605 JLINK_WriteReg(R3, 0x00000000)
T6E8C 000:506.624 - 0.018ms returns 0
T6E8C 000:506.656 JLINK_WriteReg(R4, 0x00000000)
T6E8C 000:506.666 - 0.009ms returns 0
T6E8C 000:506.677 JLINK_WriteReg(R5, 0x00000000)
T6E8C 000:506.687 - 0.010ms returns 0
T6E8C 000:506.698 JLINK_WriteReg(R6, 0x00000000)
T6E8C 000:506.708 - 0.009ms returns 0
T6E8C 000:506.718 JLINK_WriteReg(R7, 0x00000000)
T6E8C 000:506.728 - 0.009ms returns 0
T6E8C 000:506.739 JLINK_WriteReg(R8, 0x00000000)
T6E8C 000:506.748 - 0.009ms returns 0
T6E8C 000:506.759 JLINK_WriteReg(R9, 0x20000414)
T6E8C 000:506.768 - 0.009ms returns 0
T6E8C 000:506.787 JLINK_WriteReg(R10, 0x00000000)
T6E8C 000:506.799 - 0.012ms returns 0
T6E8C 000:506.811 JLINK_WriteReg(R11, 0x00000000)
T6E8C 000:506.820 - 0.009ms returns 0
T6E8C 000:506.831 JLINK_WriteReg(R12, 0x00000000)
T6E8C 000:506.840 - 0.009ms returns 0
T6E8C 000:506.851 JLINK_WriteReg(R13 (SP), 0x20001000)
T6E8C 000:506.862 - 0.010ms returns 0
T6E8C 000:506.872 JLINK_WriteReg(R14, 0x20000001)
T6E8C 000:506.882 - 0.009ms returns 0
T6E8C 000:506.893 JLINK_WriteReg(R15 (PC), 0x2000029A)
T6E8C 000:506.903 - 0.010ms returns 0
T6E8C 000:506.914 JLINK_WriteReg(XPSR, 0x01000000)
T6E8C 000:506.923 - 0.009ms returns 0
T6E8C 000:506.934 JLINK_WriteReg(MSP, 0x20001000)
T6E8C 000:506.944 - 0.009ms returns 0
T6E8C 000:506.955 JLINK_WriteReg(PSP, 0x20001000)
T6E8C 000:506.964 - 0.009ms returns 0
T6E8C 000:506.975 JLINK_WriteReg(CFBP, 0x00000000)
T6E8C 000:506.985 - 0.009ms returns 0
T6E8C 000:506.997 JLINK_SetBPEx(Addr = 0x20000000, Type = 0xFFFFFFF2)
T6E8C 000:507.010 - 0.013ms returns 0x00000006
T6E8C 000:507.025 JLINK_Go()
T6E8C 000:507.042   CPU_WriteMem(4 bytes @ 0xE0002000)
T6E8C 000:507.550   CPU_ReadMem(4 bytes @ 0xE0001000)
T6E8C 000:511.482 - 4.455ms 
T6E8C 000:511.535 JLINK_IsHalted()
T6E8C 000:511.958 - 0.422ms returns FALSE
T6E8C 000:511.982 JLINK_HasError()
T6E8C 000:515.668 JLINK_IsHalted()
T6E8C 000:516.174 - 0.505ms returns FALSE
T6E8C 000:516.192 JLINK_HasError()
T6E8C 000:517.675 JLINK_IsHalted()
T6E8C 000:518.139 - 0.462ms returns FALSE
T6E8C 000:518.184 JLINK_HasError()
T6E8C 000:519.668 JLINK_IsHalted()
T6E8C 000:523.037 - 3.368ms returns TRUE
T6E8C 000:523.066 JLINK_ReadReg(R15 (PC))
T6E8C 000:523.084 - 0.017ms returns 0x20000000
T6E8C 000:523.101 JLINK_ClrBPEx(BPHandle = 0x00000006)
T6E8C 000:523.118 - 0.017ms returns 0x00
T6E8C 000:523.135 JLINK_ReadReg(R0)
T6E8C 000:523.149 - 0.014ms returns 0x00000000
T6E8C 000:524.461 JLINK_WriteMem(0x20000418, 0x3E8 Bytes, ...)
T6E8C 000:524.494   Data:  F0 D1 00 BF D1 E7 00 00 04 82 02 40 00 80 02 40 ...
T6E8C 000:524.539   CPU_WriteMem(1000 bytes @ 0x20000418)
T6E8C 000:530.695 - 6.233ms returns 0x3E8
T6E8C 000:530.733 JLINK_WriteMem(0x20000800, 0x18 Bytes, ...)
T6E8C 000:530.744   Data:  20 78 00 F0 10 00 10 28 11 D1 9C 49 09 1D A0 69 ...
T6E8C 000:530.774   CPU_WriteMem(24 bytes @ 0x20000800)
T6E8C 000:531.387 - 0.653ms returns 0x18
T6E8C 000:531.409 JLINK_HasError()
T6E8C 000:531.423 JLINK_WriteReg(R0, 0x08000800)
T6E8C 000:531.437 - 0.014ms returns 0
T6E8C 000:531.449 JLINK_WriteReg(R1, 0x00000400)
T6E8C 000:531.459 - 0.010ms returns 0
T6E8C 000:531.471 JLINK_WriteReg(R2, 0x20000418)
T6E8C 000:531.481 - 0.010ms returns 0
T6E8C 000:531.493 JLINK_WriteReg(R3, 0x00000000)
T6E8C 000:531.503 - 0.010ms returns 0
T6E8C 000:531.515 JLINK_WriteReg(R4, 0x00000000)
T6E8C 000:531.525 - 0.010ms returns 0
T6E8C 000:531.536 JLINK_WriteReg(R5, 0x00000000)
T6E8C 000:531.547 - 0.010ms returns 0
T6E8C 000:531.558 JLINK_WriteReg(R6, 0x00000000)
T6E8C 000:531.568 - 0.010ms returns 0
T6E8C 000:531.580 JLINK_WriteReg(R7, 0x00000000)
T6E8C 000:531.590 - 0.009ms returns 0
T6E8C 000:531.602 JLINK_WriteReg(R8, 0x00000000)
T6E8C 000:531.612 - 0.010ms returns 0
T6E8C 000:531.623 JLINK_WriteReg(R9, 0x20000414)
T6E8C 000:531.634 - 0.009ms returns 0
T6E8C 000:531.646 JLINK_WriteReg(R10, 0x00000000)
T6E8C 000:531.656 - 0.010ms returns 0
T6E8C 000:531.668 JLINK_WriteReg(R11, 0x00000000)
T6E8C 000:531.678 - 0.010ms returns 0
T6E8C 000:531.690 JLINK_WriteReg(R12, 0x00000000)
T6E8C 000:531.813 - 0.123ms returns 0
T6E8C 000:531.826 JLINK_WriteReg(R13 (SP), 0x20001000)
T6E8C 000:531.837 - 0.011ms returns 0
T6E8C 000:531.849 JLINK_WriteReg(R14, 0x20000001)
T6E8C 000:531.859 - 0.010ms returns 0
T6E8C 000:531.871 JLINK_WriteReg(R15 (PC), 0x2000029A)
T6E8C 000:531.881 - 0.010ms returns 0
T6E8C 000:531.893 JLINK_WriteReg(XPSR, 0x01000000)
T6E8C 000:531.903 - 0.010ms returns 0
T6E8C 000:531.914 JLINK_WriteReg(MSP, 0x20001000)
T6E8C 000:531.925 - 0.010ms returns 0
T6E8C 000:531.937 JLINK_WriteReg(PSP, 0x20001000)
T6E8C 000:531.948 - 0.010ms returns 0
T6E8C 000:531.961 JLINK_WriteReg(CFBP, 0x00000000)
T6E8C 000:531.971 - 0.010ms returns 0
T6E8C 000:531.985 JLINK_SetBPEx(Addr = 0x20000000, Type = 0xFFFFFFF2)
T6E8C 000:531.998 - 0.014ms returns 0x00000007
T6E8C 000:532.011 JLINK_Go()
T6E8C 000:532.029   CPU_WriteMem(4 bytes @ 0xE0002000)
T6E8C 000:532.523   CPU_ReadMem(4 bytes @ 0xE0001000)
T6E8C 000:536.528 - 4.514ms 
T6E8C 000:536.562 JLINK_IsHalted()
T6E8C 000:537.037 - 0.474ms returns FALSE
T6E8C 000:537.073 JLINK_HasError()
T6E8C 000:542.739 JLINK_IsHalted()
T6E8C 000:543.238 - 0.499ms returns FALSE
T6E8C 000:543.257 JLINK_HasError()
T6E8C 000:546.781 JLINK_IsHalted()
T6E8C 000:550.183 - 3.400ms returns TRUE
T6E8C 000:550.227 JLINK_ReadReg(R15 (PC))
T6E8C 000:550.243 - 0.016ms returns 0x20000000
T6E8C 000:550.257 JLINK_ClrBPEx(BPHandle = 0x00000007)
T6E8C 000:550.269 - 0.012ms returns 0x00
T6E8C 000:550.282 JLINK_ReadReg(R0)
T6E8C 000:550.294 - 0.011ms returns 0x00000000
T6E8C 000:551.399 JLINK_WriteMem(0x20000418, 0x3E8 Bytes, ...)
T6E8C 000:551.427   Data:  09 D9 98 48 00 1D 00 68 20 F4 E0 60 A1 69 08 43 ...
T6E8C 000:551.458   CPU_WriteMem(1000 bytes @ 0x20000418)
T6E8C 000:557.601 - 6.202ms returns 0x3E8
T6E8C 000:557.626 JLINK_WriteMem(0x20000800, 0x18 Bytes, ...)
T6E8C 000:557.636   Data:  5D 4E 10 3E 36 68 C6 F3 C1 07 5C 4E 26 FA 07 F3 ...
T6E8C 000:557.657   CPU_WriteMem(24 bytes @ 0x20000800)
T6E8C 000:558.388 - 0.761ms returns 0x18
T6E8C 000:558.414 JLINK_HasError()
T6E8C 000:558.425 JLINK_WriteReg(R0, 0x08000C00)
T6E8C 000:558.437 - 0.011ms returns 0
T6E8C 000:558.446 JLINK_WriteReg(R1, 0x00000400)
T6E8C 000:558.453 - 0.007ms returns 0
T6E8C 000:558.461 JLINK_WriteReg(R2, 0x20000418)
T6E8C 000:558.469 - 0.007ms returns 0
T6E8C 000:558.477 JLINK_WriteReg(R3, 0x00000000)
T6E8C 000:558.484 - 0.007ms returns 0
T6E8C 000:558.493 JLINK_WriteReg(R4, 0x00000000)
T6E8C 000:558.500 - 0.007ms returns 0
T6E8C 000:558.508 JLINK_WriteReg(R5, 0x00000000)
T6E8C 000:558.515 - 0.007ms returns 0
T6E8C 000:558.523 JLINK_WriteReg(R6, 0x00000000)
T6E8C 000:558.530 - 0.007ms returns 0
T6E8C 000:558.539 JLINK_WriteReg(R7, 0x00000000)
T6E8C 000:558.546 - 0.007ms returns 0
T6E8C 000:558.554 JLINK_WriteReg(R8, 0x00000000)
T6E8C 000:558.561 - 0.007ms returns 0
T6E8C 000:558.570 JLINK_WriteReg(R9, 0x20000414)
T6E8C 000:558.577 - 0.007ms returns 0
T6E8C 000:558.585 JLINK_WriteReg(R10, 0x00000000)
T6E8C 000:558.592 - 0.007ms returns 0
T6E8C 000:558.600 JLINK_WriteReg(R11, 0x00000000)
T6E8C 000:558.607 - 0.007ms returns 0
T6E8C 000:558.616 JLINK_WriteReg(R12, 0x00000000)
T6E8C 000:558.623 - 0.007ms returns 0
T6E8C 000:558.631 JLINK_WriteReg(R13 (SP), 0x20001000)
T6E8C 000:558.639 - 0.008ms returns 0
T6E8C 000:558.647 JLINK_WriteReg(R14, 0x20000001)
T6E8C 000:558.654 - 0.007ms returns 0
T6E8C 000:558.663 JLINK_WriteReg(R15 (PC), 0x2000029A)
T6E8C 000:558.670 - 0.007ms returns 0
T6E8C 000:558.678 JLINK_WriteReg(XPSR, 0x01000000)
T6E8C 000:558.686 - 0.007ms returns 0
T6E8C 000:558.694 JLINK_WriteReg(MSP, 0x20001000)
T6E8C 000:558.701 - 0.007ms returns 0
T6E8C 000:558.709 JLINK_WriteReg(PSP, 0x20001000)
T6E8C 000:558.716 - 0.007ms returns 0
T6E8C 000:558.724 JLINK_WriteReg(CFBP, 0x00000000)
T6E8C 000:558.731 - 0.007ms returns 0
T6E8C 000:558.741 JLINK_SetBPEx(Addr = 0x20000000, Type = 0xFFFFFFF2)
T6E8C 000:558.750 - 0.009ms returns 0x00000008
T6E8C 000:558.758 JLINK_Go()
T6E8C 000:558.770   CPU_WriteMem(4 bytes @ 0xE0002000)
T6E8C 000:559.257   CPU_ReadMem(4 bytes @ 0xE0001000)
T6E8C 000:563.180 - 4.420ms 
T6E8C 000:563.227 JLINK_IsHalted()
T6E8C 000:563.795 - 0.567ms returns FALSE
T6E8C 000:563.841 JLINK_HasError()
T6E8C 000:568.914 JLINK_IsHalted()
T6E8C 000:569.388 - 0.474ms returns FALSE
T6E8C 000:569.402 JLINK_HasError()
T6E8C 000:570.915 JLINK_IsHalted()
T6E8C 000:571.396 - 0.482ms returns FALSE
T6E8C 000:571.415 JLINK_HasError()
T6E8C 000:572.945 JLINK_IsHalted()
T6E8C 000:576.197 - 3.249ms returns TRUE
T6E8C 000:576.239 JLINK_ReadReg(R15 (PC))
T6E8C 000:576.257 - 0.018ms returns 0x20000000
T6E8C 000:576.273 JLINK_ClrBPEx(BPHandle = 0x00000008)
T6E8C 000:576.288 - 0.015ms returns 0x00
T6E8C 000:576.303 JLINK_ReadReg(R0)
T6E8C 000:576.316 - 0.012ms returns 0x00000000
T6E8C 000:577.638 JLINK_WriteMem(0x20000418, 0x3E8 Bytes, ...)
T6E8C 000:577.677   Data:  01 EE 10 1A B8 EE 41 1A 81 EE 81 2A 9F ED 58 1A ...
T6E8C 000:577.719   CPU_WriteMem(1000 bytes @ 0x20000418)
T6E8C 000:583.945 - 6.307ms returns 0x3E8
T6E8C 000:583.991 JLINK_WriteMem(0x20000800, 0x18 Bytes, ...)
T6E8C 000:584.007   Data:  7C 30 21 69 40 EA 01 30 64 49 0C 39 08 60 0A E0 ...
T6E8C 000:584.044   CPU_WriteMem(24 bytes @ 0x20000800)
T6E8C 000:584.691 - 0.699ms returns 0x18
T6E8C 000:584.743 JLINK_HasError()
T6E8C 000:584.762 JLINK_WriteReg(R0, 0x08001000)
T6E8C 000:584.783 - 0.021ms returns 0
T6E8C 000:584.799 JLINK_WriteReg(R1, 0x00000400)
T6E8C 000:584.812 - 0.013ms returns 0
T6E8C 000:584.827 JLINK_WriteReg(R2, 0x20000418)
T6E8C 000:584.839 - 0.013ms returns 0
T6E8C 000:584.855 JLINK_WriteReg(R3, 0x00000000)
T6E8C 000:584.867 - 0.012ms returns 0
T6E8C 000:584.882 JLINK_WriteReg(R4, 0x00000000)
T6E8C 000:584.895 - 0.012ms returns 0
T6E8C 000:584.909 JLINK_WriteReg(R5, 0x00000000)
T6E8C 000:584.922 - 0.012ms returns 0
T6E8C 000:584.943 JLINK_WriteReg(R6, 0x00000000)
T6E8C 000:584.955 - 0.012ms returns 0
T6E8C 000:584.970 JLINK_WriteReg(R7, 0x00000000)
T6E8C 000:584.983 - 0.013ms returns 0
T6E8C 000:584.997 JLINK_WriteReg(R8, 0x00000000)
T6E8C 000:585.010 - 0.012ms returns 0
T6E8C 000:585.024 JLINK_WriteReg(R9, 0x20000414)
T6E8C 000:585.037 - 0.012ms returns 0
T6E8C 000:585.051 JLINK_WriteReg(R10, 0x00000000)
T6E8C 000:585.064 - 0.012ms returns 0
T6E8C 000:585.078 JLINK_WriteReg(R11, 0x00000000)
T6E8C 000:585.091 - 0.012ms returns 0
T6E8C 000:585.105 JLINK_WriteReg(R12, 0x00000000)
T6E8C 000:585.118 - 0.012ms returns 0
T6E8C 000:585.133 JLINK_WriteReg(R13 (SP), 0x20001000)
T6E8C 000:585.146 - 0.013ms returns 0
T6E8C 000:585.161 JLINK_WriteReg(R14, 0x20000001)
T6E8C 000:585.174 - 0.012ms returns 0
T6E8C 000:585.188 JLINK_WriteReg(R15 (PC), 0x2000029A)
T6E8C 000:585.201 - 0.013ms returns 0
T6E8C 000:585.216 JLINK_WriteReg(XPSR, 0x01000000)
T6E8C 000:585.229 - 0.013ms returns 0
T6E8C 000:585.243 JLINK_WriteReg(MSP, 0x20001000)
T6E8C 000:585.254 - 0.011ms returns 0
T6E8C 000:585.268 JLINK_WriteReg(PSP, 0x20001000)
T6E8C 000:585.279 - 0.011ms returns 0
T6E8C 000:585.293 JLINK_WriteReg(CFBP, 0x00000000)
T6E8C 000:585.304 - 0.011ms returns 0
T6E8C 000:585.319 JLINK_SetBPEx(Addr = 0x20000000, Type = 0xFFFFFFF2)
T6E8C 000:585.335 - 0.016ms returns 0x00000009
T6E8C 000:585.348 JLINK_Go()
T6E8C 000:585.375   CPU_WriteMem(4 bytes @ 0xE0002000)
T6E8C 000:585.834   CPU_ReadMem(4 bytes @ 0xE0001000)
T6E8C 000:589.883 - 4.531ms 
T6E8C 000:589.933 JLINK_IsHalted()
T6E8C 000:590.399 - 0.465ms returns FALSE
T6E8C 000:590.432 JLINK_HasError()
T6E8C 000:594.917 JLINK_IsHalted()
T6E8C 000:595.403 - 0.486ms returns FALSE
T6E8C 000:595.423 JLINK_HasError()
T6E8C 000:597.371 JLINK_IsHalted()
T6E8C 000:597.846 - 0.474ms returns FALSE
T6E8C 000:597.866 JLINK_HasError()
T6E8C 000:601.700 JLINK_IsHalted()
T6E8C 000:605.115 - 3.414ms returns TRUE
T6E8C 000:605.153 JLINK_ReadReg(R15 (PC))
T6E8C 000:605.166 - 0.013ms returns 0x20000000
T6E8C 000:605.177 JLINK_ClrBPEx(BPHandle = 0x00000009)
T6E8C 000:605.187 - 0.010ms returns 0x00
T6E8C 000:605.198 JLINK_ReadReg(R0)
T6E8C 000:605.207 - 0.009ms returns 0x00000000
T6E8C 000:606.071 JLINK_WriteMem(0x20000418, 0x3E8 Bytes, ...)
T6E8C 000:606.093   Data:  FE 40 21 7C 40 EA 01 60 5E 49 0C 39 08 60 19 E0 ...
T6E8C 000:606.118   CPU_WriteMem(1000 bytes @ 0x20000418)
T6E8C 000:612.313 - 6.241ms returns 0x3E8
T6E8C 000:612.363 JLINK_WriteMem(0x20000800, 0x18 Bytes, ...)
T6E8C 000:612.375   Data:  F2 D1 00 BF D4 E9 0A 10 41 EA 00 10 5F 49 28 31 ...
T6E8C 000:612.405   CPU_WriteMem(24 bytes @ 0x20000800)
T6E8C 000:613.125 - 0.760ms returns 0x18
T6E8C 000:613.170 JLINK_HasError()
T6E8C 000:613.186 JLINK_WriteReg(R0, 0x08001400)
T6E8C 000:613.202 - 0.017ms returns 0
T6E8C 000:613.214 JLINK_WriteReg(R1, 0x00000400)
T6E8C 000:613.224 - 0.010ms returns 0
T6E8C 000:613.236 JLINK_WriteReg(R2, 0x20000418)
T6E8C 000:613.246 - 0.010ms returns 0
T6E8C 000:613.258 JLINK_WriteReg(R3, 0x00000000)
T6E8C 000:613.268 - 0.010ms returns 0
T6E8C 000:613.280 JLINK_WriteReg(R4, 0x00000000)
T6E8C 000:613.290 - 0.010ms returns 0
T6E8C 000:613.302 JLINK_WriteReg(R5, 0x00000000)
T6E8C 000:613.311 - 0.009ms returns 0
T6E8C 000:613.323 JLINK_WriteReg(R6, 0x00000000)
T6E8C 000:613.333 - 0.009ms returns 0
T6E8C 000:613.344 JLINK_WriteReg(R7, 0x00000000)
T6E8C 000:613.354 - 0.010ms returns 0
T6E8C 000:613.367 JLINK_WriteReg(R8, 0x00000000)
T6E8C 000:613.376 - 0.010ms returns 0
T6E8C 000:613.388 JLINK_WriteReg(R9, 0x20000414)
T6E8C 000:613.397 - 0.009ms returns 0
T6E8C 000:613.409 JLINK_WriteReg(R10, 0x00000000)
T6E8C 000:613.419 - 0.010ms returns 0
T6E8C 000:613.430 JLINK_WriteReg(R11, 0x00000000)
T6E8C 000:613.440 - 0.009ms returns 0
T6E8C 000:613.452 JLINK_WriteReg(R12, 0x00000000)
T6E8C 000:613.461 - 0.009ms returns 0
T6E8C 000:613.473 JLINK_WriteReg(R13 (SP), 0x20001000)
T6E8C 000:613.484 - 0.011ms returns 0
T6E8C 000:613.496 JLINK_WriteReg(R14, 0x20000001)
T6E8C 000:613.505 - 0.009ms returns 0
T6E8C 000:613.518 JLINK_WriteReg(R15 (PC), 0x2000029A)
T6E8C 000:613.527 - 0.009ms returns 0
T6E8C 000:613.539 JLINK_WriteReg(XPSR, 0x01000000)
T6E8C 000:613.548 - 0.009ms returns 0
T6E8C 000:613.559 JLINK_WriteReg(MSP, 0x20001000)
T6E8C 000:613.568 - 0.009ms returns 0
T6E8C 000:613.579 JLINK_WriteReg(PSP, 0x20001000)
T6E8C 000:613.588 - 0.009ms returns 0
T6E8C 000:613.599 JLINK_WriteReg(CFBP, 0x00000000)
T6E8C 000:613.608 - 0.009ms returns 0
T6E8C 000:613.620 JLINK_SetBPEx(Addr = 0x20000000, Type = 0xFFFFFFF2)
T6E8C 000:613.632 - 0.012ms returns 0x0000000A
T6E8C 000:613.643 JLINK_Go()
T6E8C 000:613.659   CPU_WriteMem(4 bytes @ 0xE0002000)
T6E8C 000:614.223   CPU_ReadMem(4 bytes @ 0xE0001000)
T6E8C 000:618.231 - 4.586ms 
T6E8C 000:618.298 JLINK_IsHalted()
T6E8C 000:618.775 - 0.476ms returns FALSE
T6E8C 000:618.810 JLINK_HasError()
T6E8C 000:625.334 JLINK_IsHalted()
T6E8C 000:625.806 - 0.472ms returns FALSE
T6E8C 000:625.824 JLINK_HasError()
T6E8C 000:627.318 JLINK_IsHalted()
T6E8C 000:630.701 - 3.382ms returns TRUE
T6E8C 000:630.734 JLINK_ReadReg(R15 (PC))
T6E8C 000:630.754 - 0.019ms returns 0x20000000
T6E8C 000:630.768 JLINK_ClrBPEx(BPHandle = 0x0000000A)
T6E8C 000:630.779 - 0.011ms returns 0x00
T6E8C 000:630.791 JLINK_ReadReg(R0)
T6E8C 000:630.802 - 0.010ms returns 0x00000000
T6E8C 000:631.814 JLINK_WriteMem(0x20000418, 0x3E8 Bytes, ...)
T6E8C 000:631.849   Data:  08 43 5C 49 28 31 08 60 20 8E 40 1E C0 F3 08 00 ...
T6E8C 000:631.883   CPU_WriteMem(1000 bytes @ 0x20000418)
T6E8C 000:637.980 - 6.166ms returns 0x3E8
T6E8C 000:638.024 JLINK_WriteMem(0x20000800, 0x18 Bytes, ...)
T6E8C 000:638.040   Data:  18 B1 20 46 FF F7 8A FF 05 E0 20 46 00 F0 53 F8 ...
T6E8C 000:638.075   CPU_WriteMem(24 bytes @ 0x20000800)
T6E8C 000:638.764 - 0.740ms returns 0x18
T6E8C 000:638.787 JLINK_HasError()
T6E8C 000:638.806 JLINK_WriteReg(R0, 0x08001800)
T6E8C 000:638.824 - 0.018ms returns 0
T6E8C 000:638.840 JLINK_WriteReg(R1, 0x00000400)
T6E8C 000:638.854 - 0.014ms returns 0
T6E8C 000:638.871 JLINK_WriteReg(R2, 0x20000418)
T6E8C 000:638.884 - 0.014ms returns 0
T6E8C 000:638.900 JLINK_WriteReg(R3, 0x00000000)
T6E8C 000:638.914 - 0.014ms returns 0
T6E8C 000:638.941 JLINK_WriteReg(R4, 0x00000000)
T6E8C 000:638.960 - 0.019ms returns 0
T6E8C 000:638.977 JLINK_WriteReg(R5, 0x00000000)
T6E8C 000:638.990 - 0.013ms returns 0
T6E8C 000:639.007 JLINK_WriteReg(R6, 0x00000000)
T6E8C 000:639.020 - 0.014ms returns 0
T6E8C 000:639.036 JLINK_WriteReg(R7, 0x00000000)
T6E8C 000:639.050 - 0.013ms returns 0
T6E8C 000:639.066 JLINK_WriteReg(R8, 0x00000000)
T6E8C 000:639.079 - 0.013ms returns 0
T6E8C 000:639.095 JLINK_WriteReg(R9, 0x20000414)
T6E8C 000:639.109 - 0.013ms returns 0
T6E8C 000:639.125 JLINK_WriteReg(R10, 0x00000000)
T6E8C 000:639.139 - 0.013ms returns 0
T6E8C 000:639.155 JLINK_WriteReg(R11, 0x00000000)
T6E8C 000:639.168 - 0.013ms returns 0
T6E8C 000:639.182 JLINK_WriteReg(R12, 0x00000000)
T6E8C 000:639.201 - 0.019ms returns 0
T6E8C 000:639.216 JLINK_WriteReg(R13 (SP), 0x20001000)
T6E8C 000:639.230 - 0.013ms returns 0
T6E8C 000:639.245 JLINK_WriteReg(R14, 0x20000001)
T6E8C 000:639.257 - 0.012ms returns 0
T6E8C 000:639.273 JLINK_WriteReg(R15 (PC), 0x2000029A)
T6E8C 000:639.286 - 0.014ms returns 0
T6E8C 000:639.300 JLINK_WriteReg(XPSR, 0x01000000)
T6E8C 000:639.313 - 0.012ms returns 0
T6E8C 000:639.328 JLINK_WriteReg(MSP, 0x20001000)
T6E8C 000:639.341 - 0.013ms returns 0
T6E8C 000:639.355 JLINK_WriteReg(PSP, 0x20001000)
T6E8C 000:639.368 - 0.012ms returns 0
T6E8C 000:639.382 JLINK_WriteReg(CFBP, 0x00000000)
T6E8C 000:639.395 - 0.012ms returns 0
T6E8C 000:639.411 JLINK_SetBPEx(Addr = 0x20000000, Type = 0xFFFFFFF2)
T6E8C 000:639.425 - 0.015ms returns 0x0000000B
T6E8C 000:639.440 JLINK_Go()
T6E8C 000:639.459   CPU_WriteMem(4 bytes @ 0xE0002000)
T6E8C 000:640.026   CPU_ReadMem(4 bytes @ 0xE0001000)
T6E8C 000:643.830 - 4.388ms 
T6E8C 000:643.881 JLINK_IsHalted()
T6E8C 000:644.353 - 0.471ms returns FALSE
T6E8C 000:644.388 JLINK_HasError()
T6E8C 000:650.731 JLINK_IsHalted()
T6E8C 000:651.226 - 0.495ms returns FALSE
T6E8C 000:651.241 JLINK_HasError()
T6E8C 000:652.717 JLINK_IsHalted()
T6E8C 000:656.045 - 3.327ms returns TRUE
T6E8C 000:656.067 JLINK_ReadReg(R15 (PC))
T6E8C 000:656.081 - 0.014ms returns 0x20000000
T6E8C 000:656.095 JLINK_ClrBPEx(BPHandle = 0x0000000B)
T6E8C 000:656.107 - 0.012ms returns 0x00
T6E8C 000:656.120 JLINK_ReadReg(R0)
T6E8C 000:656.132 - 0.011ms returns 0x00000000
T6E8C 000:657.191 JLINK_WriteMem(0x20000418, 0x3E8 Bytes, ...)
T6E8C 000:657.221   Data:  20 77 05 F0 01 00 48 B1 06 F0 01 00 30 B1 6F F0 ...
T6E8C 000:657.258   CPU_WriteMem(1000 bytes @ 0x20000418)
T6E8C 000:663.390 - 6.199ms returns 0x3E8
T6E8C 000:663.423 JLINK_WriteMem(0x20000800, 0x18 Bytes, ...)
T6E8C 000:663.434   Data:  00 20 00 90 28 46 38 BC 5D F8 14 FB 2D E9 F7 4F ...
T6E8C 000:663.463   CPU_WriteMem(24 bytes @ 0x20000800)
T6E8C 000:664.113 - 0.690ms returns 0x18
T6E8C 000:664.132 JLINK_HasError()
T6E8C 000:664.146 JLINK_WriteReg(R0, 0x08001C00)
T6E8C 000:664.159 - 0.013ms returns 0
T6E8C 000:664.171 JLINK_WriteReg(R1, 0x00000400)
T6E8C 000:664.181 - 0.010ms returns 0
T6E8C 000:664.193 JLINK_WriteReg(R2, 0x20000418)
T6E8C 000:664.203 - 0.010ms returns 0
T6E8C 000:664.215 JLINK_WriteReg(R3, 0x00000000)
T6E8C 000:664.225 - 0.010ms returns 0
T6E8C 000:664.237 JLINK_WriteReg(R4, 0x00000000)
T6E8C 000:664.247 - 0.009ms returns 0
T6E8C 000:664.259 JLINK_WriteReg(R5, 0x00000000)
T6E8C 000:664.269 - 0.010ms returns 0
T6E8C 000:664.280 JLINK_WriteReg(R6, 0x00000000)
T6E8C 000:664.290 - 0.010ms returns 0
T6E8C 000:664.302 JLINK_WriteReg(R7, 0x00000000)
T6E8C 000:664.312 - 0.009ms returns 0
T6E8C 000:664.324 JLINK_WriteReg(R8, 0x00000000)
T6E8C 000:664.334 - 0.009ms returns 0
T6E8C 000:664.351 JLINK_WriteReg(R9, 0x20000414)
T6E8C 000:664.361 - 0.009ms returns 0
T6E8C 000:664.373 JLINK_WriteReg(R10, 0x00000000)
T6E8C 000:664.383 - 0.010ms returns 0
T6E8C 000:664.394 JLINK_WriteReg(R11, 0x00000000)
T6E8C 000:664.404 - 0.010ms returns 0
T6E8C 000:664.417 JLINK_WriteReg(R12, 0x00000000)
T6E8C 000:664.427 - 0.010ms returns 0
T6E8C 000:664.439 JLINK_WriteReg(R13 (SP), 0x20001000)
T6E8C 000:664.450 - 0.011ms returns 0
T6E8C 000:664.469 JLINK_WriteReg(R14, 0x20000001)
T6E8C 000:664.484 - 0.014ms returns 0
T6E8C 000:664.496 JLINK_WriteReg(R15 (PC), 0x2000029A)
T6E8C 000:664.506 - 0.010ms returns 0
T6E8C 000:664.518 JLINK_WriteReg(XPSR, 0x01000000)
T6E8C 000:664.528 - 0.010ms returns 0
T6E8C 000:664.539 JLINK_WriteReg(MSP, 0x20001000)
T6E8C 000:664.549 - 0.009ms returns 0
T6E8C 000:664.561 JLINK_WriteReg(PSP, 0x20001000)
T6E8C 000:664.571 - 0.010ms returns 0
T6E8C 000:664.582 JLINK_WriteReg(CFBP, 0x00000000)
T6E8C 000:664.593 - 0.010ms returns 0
T6E8C 000:664.606 JLINK_SetBPEx(Addr = 0x20000000, Type = 0xFFFFFFF2)
T6E8C 000:664.618 - 0.012ms returns 0x0000000C
T6E8C 000:664.629 JLINK_Go()
T6E8C 000:664.644   CPU_WriteMem(4 bytes @ 0xE0002000)
T6E8C 000:665.131   CPU_ReadMem(4 bytes @ 0xE0001000)
T6E8C 000:668.975 - 4.344ms 
T6E8C 000:669.030 JLINK_IsHalted()
T6E8C 000:669.564 - 0.533ms returns FALSE
T6E8C 000:669.596 JLINK_HasError()
T6E8C 000:673.719 JLINK_IsHalted()
T6E8C 000:674.199 - 0.480ms returns FALSE
T6E8C 000:674.217 JLINK_HasError()
T6E8C 000:675.713 JLINK_IsHalted()
T6E8C 000:676.196 - 0.483ms returns FALSE
T6E8C 000:676.212 JLINK_HasError()
T6E8C 000:677.761 JLINK_IsHalted()
T6E8C 000:681.096 - 3.333ms returns TRUE
T6E8C 000:681.126 JLINK_ReadReg(R15 (PC))
T6E8C 000:681.144 - 0.017ms returns 0x20000000
T6E8C 000:681.161 JLINK_ClrBPEx(BPHandle = 0x0000000C)
T6E8C 000:681.177 - 0.015ms returns 0x00
T6E8C 000:681.193 JLINK_ReadReg(R0)
T6E8C 000:681.207 - 0.013ms returns 0x00000000
T6E8C 000:682.402 JLINK_WriteMem(0x20000418, 0x3E8 Bytes, ...)
T6E8C 000:682.435   Data:  13 90 40 20 14 90 00 20 15 90 18 98 17 90 00 20 ...
T6E8C 000:682.474   CPU_WriteMem(1000 bytes @ 0x20000418)
T6E8C 000:688.562 - 6.160ms returns 0x3E8
T6E8C 000:688.599 JLINK_WriteMem(0x20000800, 0x18 Bytes, ...)
